
T1D3C 000:002 SEGGER J-Link V6.16c Log File (0000ms, 0002ms total)
T1D3C 000:002 DLL Compiled: Jun 16 2017 18:14:49 (0000ms, 0002ms total)
T1D3C 000:002 Logging started @ 2018-01-23 11:43 (0000ms, 0002ms total)
T1D3C 000:002 JLINK_SetWarnOutHandler(...) (0000ms, 0002ms total)
T1D3C 000:002 JLINK_OpenEx(...)
Firmware: J-Link V9 compiled Jun 16 2017 16:15:10
Hardware: V9.20
Feature(s): RDI, GDB, FlashDL, FlashBP, JFlash, RDDIWEBSRV Webserver running on local port 19080 (0022ms, 0024ms total)
T1D3C 000:002   returns O.K. (0022ms, 0024ms total)
T1D3C 000:024 JLINK_GetEmuCaps()  returns 0xB9FF7BBF (0000ms, 0024ms total)
T1D3C 000:024 JLINK_TIF_GetAvailable(...) (0001ms, 0025ms total)
T1D3C 000:025 JLINK_SetErrorOutHandler(...) (0000ms, 0025ms total)
T1D3C 000:025 JLINK_ExecCommand("ProjectFile = "E:\SkyLin\proj\project\bootloader\USER\JLinkSettings.ini"", ...). C:\Program Files (x86)\SEGGER\JLink_V610i\JLinkDevices.xml evaluated successfully.Device "ARM7" selected.  returns 0x00 (0088ms, 0113ms total)
T1D3C 000:113 JLINK_ExecCommand("Device = STM32F769NIHx", ...). Device "STM32F769NI" selected.  returns 0x00 (0001ms, 0114ms total)
T1D3C 000:114 JLINK_ExecCommand("DisableConnectionTimeout", ...).   returns 0x01 (0000ms, 0114ms total)
T1D3C 000:114 JLINK_GetHardwareVersion()  returns 0x16760 (0000ms, 0114ms total)
T1D3C 000:114 JLINK_GetDLLVersion()  returns 61603 (0000ms, 0114ms total)
T1D3C 000:114 JLINK_GetFirmwareString(...) (0000ms, 0114ms total)
T1D3C 000:114 JLINK_GetDLLVersion()  returns 61603 (0000ms, 0114ms total)
T1D3C 000:114 JLINK_GetCompileDateTime() (0000ms, 0114ms total)
T1D3C 000:114 JLINK_GetFirmwareString(...) (0000ms, 0114ms total)
T1D3C 000:114 JLINK_GetHardwareVersion()  returns 0x16760 (0000ms, 0114ms total)
T1D3C 000:114 JLINK_TIF_Select(JLINKARM_TIF_SWD)  returns 0x00 (0004ms, 0118ms total)
T1D3C 000:118 JLINK_SetSpeed(10000) (0001ms, 0119ms total)
T1D3C 000:119 JLINK_GetId() >0x10B TIF>Found SW-DP with ID 0x5BA02477 >0x0D TIF> >0x28 TIF> >0x0D TIF> >0x28 TIF> >0x0D TIF> >0x28 TIF> >0x0D TIF> >0x28 TIF> >0x0D TIF> >0x21 TIF> >0x0D TIF> >0x28 TIF> >0x0D TIF> >0x28 TIF> >0x0D TIF> >0x28 TIF> >0x0D TIF> >0x21 TIF> >0x0D TIF> >0x21 TIF> >0x0D TIF> >0x28 TIF> >0x0D TIF> >0x21 TIF> >0x0D TIF> >0x21 TIF> >0x0D TIF> >0x28 TIF> >0x0D TIF> >0x21 TIF> >0x0D TIF> >0x21 TIF> >0x0D TIF> >0x28 TIF> >0x0D TIF> >0x21 TIF> >0x0D TIF> >0x21 TIF> >0x0D TIF> >0x28 TIF>
 >0x0D TIF> >0x21 TIF> >0x0D TIF> >0x21 TIF> >0x0D TIF> >0x28 TIF> >0x0D TIF> >0x21 TIF> >0x0D TIF> >0x21 TIF> >0x10B TIF>Found SW-DP with ID 0x5BA02477 >0x0D TIF> >0x28 TIF> >0x0D TIF> >0x28 TIF> >0x0D TIF> >0x28 TIF> >0x0D TIF> >0x28 TIF> >0x0D TIF> >0x21 TIF> >0x0D TIF> >0x28 TIF>Scanning APs, stopping at first AHB-AP found. >0x0D TIF> >0x28 TIF> >0x0D TIF> >0x21 TIF> >0x0D TIF> >0x21 TIF>AP[0] IDR: 0x74770001 (AHB-AP) >0x0D TIF> >0x28 TIF> >0x0D TIF> >0x21 TIF> >0x0D TIF> >0x21 TIF>
AHB-AP ROM: 0xE00FD000 (Base addr. of first ROM table) >0x0D TIF> >0x28 TIF> >0x0D TIF> >0x28 TIF> >0x0D TIF> >0x28 TIF> >0x0D TIF> >0x21 TIF> >0x0D TIF> >0x21 TIF> >0x0D TIF> >0x28 TIF> >0x0D TIF> >0x21 TIF> >0x0D TIF> >0x21 TIF>CPUID reg: 0x411FC270. Implementer code: 0x41 (ARM)Found Cortex-M7 r1p0, Little endian. -- CPU_ReadMem(4 bytes @ 0xE000EDF0) -- CPU_WriteMem(4 bytes @ 0xE000EDF0) -- CPU_ReadMem(4 bytes @ 0xE0002000)FPUnit: 8 code (BP) slots and 0 literal slots
 -- CPU_ReadMem(4 bytes @ 0xE000EDFC) -- CPU_WriteMem(4 bytes @ 0xE000EDFC) -- CPU_ReadMem(4 bytes @ 0xE0001000) -- CPU_WriteMem(4 bytes @ 0xE0001000) -- CPU_ReadMem(4 bytes @ 0xE000ED88) -- CPU_WriteMem(4 bytes @ 0xE000ED88) -- CPU_ReadMem(4 bytes @ 0xE000ED88) -- CPU_WriteMem(4 bytes @ 0xE000ED88)CoreSight components:ROMTbl[0] @ E00FD000 -- CPU_ReadMem(16 bytes @ 0xE00FD000) -- CPU_ReadMem(16 bytes @ 0xE00FEFF0) -- CPU_ReadMem(16 bytes @ 0xE00FEFE0)
ROMTbl[0][0]: E00FE000, CID: B105100D, PID: 000BB4C8 ROM TableROMTbl[1] @ E00FE000 -- CPU_ReadMem(16 bytes @ 0xE00FE000) -- CPU_ReadMem(16 bytes @ 0xE00FFFF0) -- CPU_ReadMem(16 bytes @ 0xE00FFFE0)ROMTbl[1][0]: E00FF000, CID: B105100D, PID: 000BB4C7 ROM TableROMTbl[2] @ E00FF000 -- CPU_ReadMem(16 bytes @ 0xE00FF000) -- CPU_ReadMem(16 bytes @ 0xE000EFF0) -- CPU_ReadMem(16 bytes @ 0xE000EFE0)ROMTbl[2][0]: E000E000, CID: B105E00D, PID: 000BB00C SCS -- CPU_ReadMem(16 bytes @ 0xE0001FF0)
 -- CPU_ReadMem(16 bytes @ 0xE0001FE0)ROMTbl[2][1]: E0001000, CID: B105E00D, PID: 000BB002 DWT -- CPU_ReadMem(16 bytes @ 0xE0002FF0) -- CPU_ReadMem(16 bytes @ 0xE0002FE0)ROMTbl[2][2]: E0002000, CID: B105E00D, PID: 000BB00E FPB -- CPU_ReadMem(16 bytes @ 0xE0000FF0) -- CPU_ReadMem(16 bytes @ 0xE0000FE0)ROMTbl[2][3]: E0000000, CID: B105E00D, PID: 000BB001 ITM -- CPU_ReadMem(16 bytes @ 0xE00FF010) -- CPU_ReadMem(16 bytes @ 0xE0041FF0) -- CPU_ReadMem(16 bytes @ 0xE0041FE0)
ROMTbl[1][1]: E0041000, CID: B105900D, PID: 001BB975 ETM-M7 -- CPU_ReadMem(16 bytes @ 0xE00FE010) -- CPU_ReadMem(16 bytes @ 0xE0040FF0) -- CPU_ReadMem(16 bytes @ 0xE0040FE0)ROMTbl[0][1]: E0040000, CID: B105900D, PID: 000BB9A9 TPIU-M7 -- CPU_ReadMem(16 bytes @ 0xE00FD010) -- CPU_ReadMem(4 bytes @ 0xE000ED78)Cache: Separate I- and D-cache. (0133ms, 0252ms total)
T1D3C 000:119  -- CPU_WriteMem(4 bytes @ 0xE000ED84) -- CPU_ReadMem(4 bytes @ 0xE000ED80)I-Cache L1: 16 KB, 256 Sets, 32 Bytes/Line, 2-Way -- CPU_WriteMem(4 bytes @ 0xE000ED84) -- CPU_ReadMem(4 bytes @ 0xE000ED80)D-Cache L1: 16 KB, 128 Sets, 32 Bytes/Line, 4-Way >0x0D TIF> >0x21 TIF>  returns 0x5BA02477 (0139ms, 0258ms total)
T1D3C 000:258 JLINK_GetDLLVersion()  returns 61603 (0000ms, 0258ms total)
T1D3C 000:258 JLINK_CORE_GetFound()  returns 0xE0100FF (0000ms, 0258ms total)
T1D3C 000:258 JLINK_GetDebugInfo(0x100 = JLINKARM_ROM_TABLE_ADDR_INDEX) -- Value=0xE00FD000  returns 0x00 (0000ms, 0258ms total)
T1D3C 000:258 JLINK_GetDebugInfo(0x100 = JLINKARM_ROM_TABLE_ADDR_INDEX) -- Value=0xE00FD000  returns 0x00 (0000ms, 0258ms total)
T1D3C 000:258 JLINK_GetDebugInfo(0x101 = JLINKARM_DEBUG_INFO_ETM_ADDR_INDEX) -- Value=0xE0041000  returns 0x00 (0000ms, 0258ms total)
T1D3C 000:258 JLINK_ReadMemEx(0xE0041FD0, 0x0020 Bytes, ..., Flags = 0x02000004) -- CPU_ReadMem(32 bytes @ 0xE0041FD0) - Data: 04 00 00 00 00 00 00 00 00 00 00 00 00 00 00 00 ...  returns 0x20 (0001ms, 0259ms total)
T1D3C 000:259 JLINK_GetDebugInfo(0x102 = JLINKARM_DEBUG_INFO_MTB_ADDR_INDEX) -- Value=0x00000000  returns 0x00 (0000ms, 0259ms total)
T1D3C 000:259 JLINK_GetDebugInfo(0x103 = JLINKARM_DEBUG_INFO_TPIU_ADDR_INDEX) -- Value=0xE0040000  returns 0x00 (0000ms, 0259ms total)
T1D3C 000:259 JLINK_GetDebugInfo(0x104 = JLINKARM_DEBUG_INFO_ITM_ADDR_INDEX) -- Value=0xE0000000  returns 0x00 (0000ms, 0259ms total)
T1D3C 000:259 JLINK_GetDebugInfo(0x105 = JLINKARM_DEBUG_INFO_DWT_ADDR_INDEX) -- Value=0xE0001000  returns 0x00 (0000ms, 0259ms total)
T1D3C 000:259 JLINK_GetDebugInfo(0x106 = JLINKARM_DEBUG_INFO_FPB_ADDR_INDEX) -- Value=0xE0002000  returns 0x00 (0000ms, 0259ms total)
T1D3C 000:259 JLINK_GetDebugInfo(0x107 = JLINKARM_DEBUG_INFO_NVIC_ADDR_INDEX) -- Value=0xE000E000  returns 0x00 (0000ms, 0259ms total)
T1D3C 000:259 JLINK_GetDebugInfo(0x10C = JLINKARM_DEBUG_INFO_DBG_ADDR_INDEX) -- Value=0xE000EDF0  returns 0x00 (0000ms, 0259ms total)
T1D3C 000:259 JLINK_ReadMemU32(0xE000ED00, 0x0001 Items, ...) -- CPU_ReadMem(4 bytes @ 0xE000ED00) - Data: 70 C2 1F 41  returns 0x01 (0001ms, 0260ms total)
T1D3C 000:260 JLINK_GetDebugInfo(0x10F = JLINKARM_DEBUG_INFO_HAS_CORTEX_M_SECURITY_EXT_INDEX) -- Value=0x00000000  returns 0x00 (0000ms, 0260ms total)
T1D3C 000:260 JLINK_SetResetType(JLINKARM_CM3_RESET_TYPE_NORMAL)  returns JLINKARM_CM3_RESET_TYPE_NORMAL (0000ms, 0260ms total)
T1D3C 000:260 JLINK_Reset() -- CPU is running -- CPU_WriteMem(4 bytes @ 0xE000EDF0) -- CPU is running -- CPU_WriteMem(4 bytes @ 0xE000EDFC) >0x35 TIF>Setting AIRCR.SYSRESETREQ -- CPU is running -- CPU_WriteMem(4 bytes @ 0xE000ED0C) >0x0D TIF> >0x28 TIF> -- CPU_ReadMem(4 bytes @ 0xE000ED0C) -- CPU_ReadMem(4 bytes @ 0xE000EDF0) -- CPU_ReadMem(4 bytes @ 0xE000EDF0) -- CPU_ReadMem(4 bytes @ 0xE000EDF0) -- CPU is running -- CPU_WriteMem(4 bytes @ 0xE000EDF0) -- CPU is running
 -- CPU_WriteMem(4 bytes @ 0xE000EDFC) -- CPU_ReadMem(4 bytes @ 0xE000EDF0) -- CPU_WriteMem(4 bytes @ 0xE0002000) -- CPU_ReadMem(4 bytes @ 0xE000EDFC) -- CPU_ReadMem(4 bytes @ 0xE0001000) (0075ms, 0335ms total)
T1D3C 000:335 JLINK_ReadReg(R15 (PC))  returns 0x080002C4 (0000ms, 0335ms total)
T1D3C 000:336 JLINK_ReadReg(XPSR)  returns 0x01000000 (0000ms, 0336ms total)
T1D3C 000:336 JLINK_Halt()  returns 0x00 (0000ms, 0336ms total)
T1D3C 000:336 JLINK_ReadMemU32(0xE000EDF0, 0x0001 Items, ...) -- CPU_ReadMem(4 bytes @ 0xE000EDF0) - Data: 03 00 03 00  returns 0x01 (0001ms, 0337ms total)
T1D3C 000:337 JLINK_WriteU32(0xE000EDF0, 0xA05F0003) -- CPU_WriteMem(4 bytes @ 0xE000EDF0)  returns 0x00 (0001ms, 0338ms total)
T1D3C 000:338 JLINK_WriteU32(0xE000EDFC, 0x01000000) -- CPU_WriteMem(4 bytes @ 0xE000EDFC)  returns 0x00 (0001ms, 0339ms total)
T1D3C 000:339 JLINK_GetHWStatus(...)  returns 0x00 (0001ms, 0340ms total)
T1D3C 000:340 JLINK_GetNumBPUnits(Type = 0xFFFFFF00)  returns 0x08 (0000ms, 0340ms total)
T1D3C 000:340 JLINK_GetNumBPUnits(Type = 0xF0)  returns 0x2000 (0001ms, 0341ms total)
T1D3C 000:341 JLINK_GetNumWPUnits()  returns 0x04 (0000ms, 0341ms total)
T1D3C 000:341 JLINK_GetSpeed()  returns 0x1770 (0000ms, 0341ms total)
T1D3C 000:341 JLINK_ReadMemU32(0xE000E004, 0x0001 Items, ...) -- CPU_ReadMem(4 bytes @ 0xE000E004) - Data: 03 00 00 00  returns 0x01 (0002ms, 0343ms total)
T1D3C 000:343 JLINK_ReadMemU32(0xE000E004, 0x0001 Items, ...) -- CPU_ReadMem(4 bytes @ 0xE000E004) - Data: 03 00 00 00  returns 0x01 (0001ms, 0344ms total)
T1D3C 000:344 JLINK_WriteMemEx(0xE0001000, 0x001C Bytes, ..., Flags = 0x02000004) - Data: 01 00 00 00 00 00 00 00 00 00 00 00 00 00 00 00 ... -- CPU_WriteMem(28 bytes @ 0xE0001000)  returns 0x1C (0002ms, 0346ms total)
T1D3C 000:346 JLINK_ReadReg(R15 (PC))  returns 0x080002C4 (0000ms, 0346ms total)
T1D3C 000:346 JLINK_ReadReg(XPSR)  returns 0x01000000 (0000ms, 0346ms total)
T1D3C 000:347 JLINK_WriteU32(0xE0041FB0, 0xC5ACCE55) -- CPU_WriteMem(4 bytes @ 0xE0041FB0)  returns 0x00 (0000ms, 0346ms total)
T1D3C 000:347 JLINK_ReadMemU32(0xE0041000, 0x0001 Items, ...) -- CPU_ReadMem(4 bytes @ 0xE0041000) - Data: 00 00 00 00  returns 0x01 (0001ms, 0347ms total)
T1D3C 000:354 JLINK_SWO_Control(JLINKARM_SWO_CMD_GET_SPEED_INFO, ...)  returns 0x00 (0001ms, 0348ms total)
T1D3C 000:355 JLINK_SWO_Control(JLINKARM_SWO_CMD_STOP, ...)  returns 0x00 (0000ms, 0348ms total)
T1D3C 000:355 JLINK_SWO_Control(JLINKARM_SWO_CMD_START, ...) -- UART -- 7448275bps -- CPU_ReadMem(4 bytes @ 0xE0042004)  returns 0x00 (0005ms, 0353ms total)
T1D3C 000:361 JLINK_WriteU32(0xE0040004, 0x00000001) -- CPU_WriteMem(4 bytes @ 0xE0040004)  returns 0x00 (0001ms, 0354ms total)
T1D3C 000:363 JLINK_WriteU32(0xE0040010, 0x0000001C)  returns 0x00 (0000ms, 0354ms total)
T1D3C 000:363 JLINK_WriteU32(0xE00400F0, 0x00000002)  returns 0x00 (0000ms, 0354ms total)
T1D3C 000:363 JLINK_WriteU32(0xE0040304, 0x00000000)  returns 0x00 (0000ms, 0354ms total)
T1D3C 000:363 JLINK_WriteU32(0xE0000FB0, 0xC5ACCE55) -- CPU_WriteMem(4 bytes @ 0xE0000FB0)  returns 0x00 (0001ms, 0355ms total)
T1D3C 000:365 JLINK_WriteU32(0xE0000E80, 0x0001000D)  returns 0x00 (0000ms, 0355ms total)
T1D3C 000:365 JLINK_WriteU32(0xE0000E00, 0x00000001)  returns 0x00 (0000ms, 0355ms total)
T1D3C 000:365 JLINK_WriteU32(0xE0000E40, 0x00000001)  returns 0x00 (0000ms, 0355ms total)
T1D3C 000:365 JLINK_WriteU32(0xE0001000, 0x00010A1F)  returns 0x00 (0000ms, 0355ms total)
T1D3C 001:048 JLINK_SetResetType(JLINKARM_CM3_RESET_TYPE_NORMAL)  returns JLINKARM_CM3_RESET_TYPE_NORMAL (0000ms, 0355ms total)
T1D3C 001:048 JLINK_Reset() -- CPU_WriteMem(4 bytes @ 0xE0000E00) -- CPU_WriteMem(4 bytes @ 0xE0000E40) -- CPU_WriteMem(4 bytes @ 0xE0000E80) -- CPU_WriteMem(4 bytes @ 0xE0001000) -- CPU_WriteMem(4 bytes @ 0xE0040010) -- CPU_WriteMem(4 bytes @ 0xE00400F0) -- CPU_WriteMem(4 bytes @ 0xE0040304) -- CPU_WriteMem(4 bytes @ 0xE000EDF0) -- CPU_WriteMem(4 bytes @ 0xE000EDFC) >0x35 TIF>Setting AIRCR.SYSRESETREQ -- CPU_WriteMem(4 bytes @ 0xE000ED0C) >0x0D TIF> >0x28 TIF> -- CPU_ReadMem(4 bytes @ 0xE000ED0C)
 -- CPU_ReadMem(4 bytes @ 0xE000EDF0) -- CPU_ReadMem(4 bytes @ 0xE000EDF0) -- CPU_ReadMem(4 bytes @ 0xE000EDF0) -- CPU_WriteMem(4 bytes @ 0xE000EDF0) -- CPU_WriteMem(4 bytes @ 0xE000EDFC) -- CPU_ReadMem(4 bytes @ 0xE000EDF0) -- CPU_WriteMem(4 bytes @ 0xE0002000) -- CPU_ReadMem(4 bytes @ 0xE000EDFC) -- CPU_ReadMem(4 bytes @ 0xE0001000) -- CPU_ReadMem(4 bytes @ 0xE0042004) (0079ms, 0434ms total)
T1D3C 001:128 JLINK_WriteU32(0xE000EDFC, 0x01000000) -- CPU_WriteMem(4 bytes @ 0xE000EDFC)  returns 0x00 (0001ms, 0435ms total)
T1D3C 001:130 JLINK_ReadReg(R15 (PC))  returns 0x080002C4 (0000ms, 0435ms total)
T1D3C 001:130 JLINK_ReadReg(XPSR)  returns 0x01000000 (0000ms, 0435ms total)
T1D3C 001:141 JLINK_ReadMemEx(0x080002C4, 0x003C Bytes, ..., Flags = 0x02000000) -- CPU_ReadMem(64 bytes @ 0x080002C0) -- Updating C cache (64 bytes @ 0x080002C0) -- Read from C cache (60 bytes @ 0x080002C4) - Data: 06 48 80 47 06 48 00 47 FE E7 FE E7 FE E7 FE E7 ...  returns 0x3C (0001ms, 0436ms total)
T1D3C 001:266 JLINK_WriteU32(0xE0001008, 0x00000000)  returns 0x00 (0000ms, 0436ms total)
T1D3C 001:266 JLINK_WriteU32(0xE000100C, 0x00000000)  returns 0x00 (0000ms, 0436ms total)
T1D3C 001:266 JLINK_WriteU32(0xE0001010, 0x00000000)  returns 0x00 (0000ms, 0436ms total)
T1D3C 001:266 JLINK_WriteU32(0xE0001014, 0x00000000)  returns 0x00 (0000ms, 0436ms total)
T1D3C 001:266 JLINK_WriteU32(0xE0001018, 0x00000000)  returns 0x00 (0000ms, 0436ms total)
T1D3C 002:210 JLINK_ReadReg(R0)  returns 0x00000000 (0001ms, 0437ms total)
T1D3C 002:212 JLINK_ReadReg(R1)  returns 0x00000000 (0000ms, 0437ms total)
T1D3C 002:212 JLINK_ReadReg(R2)  returns 0x00000000 (0000ms, 0437ms total)
T1D3C 002:212 JLINK_ReadReg(R3)  returns 0x00000000 (0000ms, 0437ms total)
T1D3C 002:212 JLINK_ReadReg(R4)  returns 0x00000000 (0000ms, 0437ms total)
T1D3C 002:212 JLINK_ReadReg(R5)  returns 0x00000000 (0000ms, 0437ms total)
T1D3C 002:212 JLINK_ReadReg(R6)  returns 0x00000000 (0000ms, 0437ms total)
T1D3C 002:212 JLINK_ReadReg(R7)  returns 0x00000000 (0000ms, 0437ms total)
T1D3C 002:212 JLINK_ReadReg(R8)  returns 0x00000000 (0000ms, 0437ms total)
T1D3C 002:212 JLINK_ReadReg(R9)  returns 0x00000000 (0000ms, 0437ms total)
T1D3C 002:212 JLINK_ReadReg(R10)  returns 0x00000000 (0000ms, 0437ms total)
T1D3C 002:212 JLINK_ReadReg(R11)  returns 0x00000000 (0000ms, 0437ms total)
T1D3C 002:212 JLINK_ReadReg(R12)  returns 0x00000000 (0001ms, 0438ms total)
T1D3C 002:213 JLINK_ReadReg(R13 (SP))  returns 0x20062B88 (0000ms, 0438ms total)
T1D3C 002:213 JLINK_ReadReg(R14)  returns 0xFFFFFFFF (0000ms, 0438ms total)
T1D3C 002:213 JLINK_ReadReg(R15 (PC))  returns 0x080002C4 (0000ms, 0438ms total)
T1D3C 002:213 JLINK_ReadReg(XPSR)  returns 0x01000000 (0000ms, 0438ms total)
T1D3C 002:213 JLINK_ReadReg(MSP)  returns 0x20062B88 (0000ms, 0438ms total)
T1D3C 002:213 JLINK_ReadReg(PSP)  returns 0x00000000 (0000ms, 0438ms total)
T1D3C 002:213 JLINK_ReadReg(CFBP)  returns 0x00000000 (0000ms, 0438ms total)
T1D3C 002:213 JLINK_ReadReg(FPSCR)  returns 0x00000000 (0004ms, 0442ms total)
T1D3C 002:218 JLINK_ReadReg(FPS0)  returns 0x00000000 (0000ms, 0442ms total)
T1D3C 002:218 JLINK_ReadReg(FPS1)  returns 0x00000000 (0000ms, 0442ms total)
T1D3C 002:218 JLINK_ReadReg(FPS2)  returns 0x00000000 (0000ms, 0442ms total)
T1D3C 002:218 JLINK_ReadReg(FPS3)  returns 0x00000000 (0000ms, 0442ms total)
T1D3C 002:218 JLINK_ReadReg(FPS4)  returns 0x00000000 (0000ms, 0442ms total)
T1D3C 002:218 JLINK_ReadReg(FPS5)  returns 0x00000000 (0000ms, 0442ms total)
T1D3C 002:218 JLINK_ReadReg(FPS6)  returns 0x00000000 (0000ms, 0442ms total)
T1D3C 002:218 JLINK_ReadReg(FPS7)  returns 0x00000000 (0000ms, 0442ms total)
T1D3C 002:218 JLINK_ReadReg(FPS8)  returns 0x00000000 (0000ms, 0442ms total)
T1D3C 002:218 JLINK_ReadReg(FPS9)  returns 0x00000000 (0000ms, 0442ms total)
T1D3C 002:218 JLINK_ReadReg(FPS10)  returns 0x00000000 (0000ms, 0442ms total)
T1D3C 002:218 JLINK_ReadReg(FPS11)  returns 0x00000000 (0000ms, 0442ms total)
T1D3C 002:218 JLINK_ReadReg(FPS12)  returns 0x00000000 (0000ms, 0442ms total)
T1D3C 002:218 JLINK_ReadReg(FPS13)  returns 0x00000000 (0000ms, 0442ms total)
T1D3C 002:218 JLINK_ReadReg(FPS14)  returns 0x00000000 (0000ms, 0442ms total)
T1D3C 002:218 JLINK_ReadReg(FPS15)  returns 0xFFFFFFFF (0000ms, 0442ms total)
T1D3C 002:218 JLINK_ReadReg(FPS16)  returns 0x00000000 (0000ms, 0442ms total)
T1D3C 002:218 JLINK_ReadReg(FPS17)  returns 0x00000000 (0000ms, 0442ms total)
T1D3C 002:218 JLINK_ReadReg(FPS18)  returns 0x00000000 (0000ms, 0442ms total)
T1D3C 002:218 JLINK_ReadReg(FPS19)  returns 0x00000000 (0000ms, 0442ms total)
T1D3C 002:218 JLINK_ReadReg(FPS20)  returns 0x00000000 (0000ms, 0442ms total)
T1D3C 002:218 JLINK_ReadReg(FPS21)  returns 0x00000000 (0000ms, 0442ms total)
T1D3C 002:218 JLINK_ReadReg(FPS22)  returns 0x00000000 (0000ms, 0442ms total)
T1D3C 002:218 JLINK_ReadReg(FPS23)  returns 0x00000000 (0000ms, 0442ms total)
T1D3C 002:218 JLINK_ReadReg(FPS24)  returns 0x00000000 (0000ms, 0442ms total)
T1D3C 002:218 JLINK_ReadReg(FPS25)  returns 0x00000000 (0000ms, 0442ms total)
T1D3C 002:218 JLINK_ReadReg(FPS26)  returns 0x00000000 (0001ms, 0443ms total)
T1D3C 002:220 JLINK_ReadReg(FPS27)  returns 0x00000000 (0000ms, 0443ms total)
T1D3C 002:220 JLINK_ReadReg(FPS28)  returns 0x00000000 (0000ms, 0443ms total)
T1D3C 002:220 JLINK_ReadReg(FPS29)  returns 0x00000000 (0000ms, 0443ms total)
T1D3C 002:220 JLINK_ReadReg(FPS30)  returns 0x00000000 (0000ms, 0443ms total)
T1D3C 002:220 JLINK_ReadReg(FPS31)  returns 0xFFFFFFFF (0000ms, 0443ms total)
T1D3C 002:260 JLINK_ReadMemEx(0x200521D6, 0x0020 Bytes, ..., Flags = 0x02000000) -- CPU_ReadMem(32 bytes @ 0x200521D6) - Data: 00 00 00 00 00 00 00 00 00 00 00 00 00 00 00 00 ...  returns 0x20 (0002ms, 0445ms total)
T1D3C 002:267 JLINK_ReadMemEx(0x20052B85, 0x0001 Bytes, ..., Flags = 0x02000000) -- CPU_ReadMem(1 bytes @ 0x20052B85) - Data: 01  returns 0x01 (0001ms, 0446ms total)
T1D3C 002:274 JLINK_ReadMemEx(0x20052B80, 0x0004 Bytes, ..., Flags = 0x02000000) -- CPU_ReadMem(4 bytes @ 0x20052B80) - Data: 00 00 00 00  returns 0x04 (0002ms, 0448ms total)
T1D3C 002:303 JLINK_ReadMemEx(0x200204CC, 0x0020 Bytes, ..., Flags = 0x02000000) -- CPU_ReadMem(64 bytes @ 0x200204C0) -- Updating C cache (64 bytes @ 0x200204C0) -- Read from C cache (32 bytes @ 0x200204CC) - Data: 00 00 00 00 00 00 00 00 00 00 00 00 00 00 00 00 ...  returns 0x20 (0002ms, 0450ms total)
T2114 002:346 JLINK_ReadMemEx(0x080002C4, 0x0002 Bytes, ..., Flags = 0x02000000) -- Read from C cache (2 bytes @ 0x080002C4) - Data: 06 48  returns 0x02 (0000ms, 0450ms total)
T2114 002:346 JLINK_SetBPEx(Addr = 0x080051B0, Type = 0xFFFFFFF2)  returns 0x00000001 (0000ms, 0450ms total)
T2114 002:346 JLINK_SetBPEx(Addr = 0x08000CF2, Type = 0xFFFFFFF2)  returns 0x00000002 (0000ms, 0450ms total)
T2114 002:346 JLINK_SetBPEx(Addr = 0x08000F74, Type = 0xFFFFFFF2)  returns 0x00000003 (0000ms, 0450ms total)
T2114 002:346 JLINK_SetBPEx(Addr = 0x08000D02, Type = 0xFFFFFFF2)  returns 0x00000004 (0000ms, 0450ms total)
T2114 002:346 JLINK_SetBPEx(Addr = 0x08000F6A, Type = 0xFFFFFFF2)  returns 0x00000005 (0000ms, 0450ms total)
T2114 002:346 JLINK_ReadMemU32(0xE0001004, 0x0001 Items, ...) - Data: 00 00 00 00  returns 0x01 (0000ms, 0450ms total)
T2114 002:346 JLINK_WriteU32(0xE0001004, 0x000003FF)  returns 0x00 (0000ms, 0450ms total)
T2114 002:346 JLINK_WriteU32(0xE0001000, 0x00410A1F)  returns 0x00 (0000ms, 0450ms total)
T2114 002:346 JLINK_WriteU32(0xE0000E80, 0x0001000F)  returns 0x00 (0000ms, 0450ms total)
T2114 002:346 JLINK_SWO_Control(JLINKARM_SWO_CMD_GET_NUM_BYTES, ...)  returns 0x00 (0000ms, 0450ms total)
T2114 002:346 JLINK_Go() -- CPU_WriteMem(4 bytes @ 0xE0002000) -- CPU_WriteMem(4 bytes @ 0xE0002000) -- CPU_WriteMem(4 bytes @ 0xE0002000) -- CPU_WriteMem(4 bytes @ 0xE0002000) -- CPU_WriteMem(4 bytes @ 0xE0002000) -- CPU_WriteMem(4 bytes @ 0xE0001000) -- CPU_ReadMem(4 bytes @ 0xE0001000) -- CPU_WriteMem(4 bytes @ 0xE0000E80) -- CPU_WriteMem(4 bytes @ 0xE0001008) -- CPU_WriteMem(4 bytes @ 0xE000100C) -- CPU_WriteMem(4 bytes @ 0xE0001010) -- CPU_WriteMem(4 bytes @ 0xE0001014)
 -- CPU_WriteMem(4 bytes @ 0xE0001018) -- CPU_WriteMem(4 bytes @ 0xE0002008) -- CPU_WriteMem(4 bytes @ 0xE000200C) -- CPU_WriteMem(4 bytes @ 0xE0002010) -- CPU_WriteMem(4 bytes @ 0xE0002014) -- CPU_WriteMem(4 bytes @ 0xE0002018) -- CPU_WriteMem(4 bytes @ 0xE000201C) -- CPU_WriteMem(4 bytes @ 0xE0002020) -- CPU_WriteMem(4 bytes @ 0xE0002024) -- CPU_WriteMem(4 bytes @ 0xE0001004) (0012ms, 0462ms total)
T2114 002:359 JLINK_WriteU32(0xE0001000, 0x00010A1F) -- CPU is running -- CPU_WriteMem(4 bytes @ 0xE0001000)  returns 0x00 (0001ms, 0463ms total)
T2114 002:460 JLINK_SWO_Read(..., Offset = 0x00, NumBytes = 0x400000) - Data:  NumBytesRead = 0x00 (0000ms, 0463ms total)
T2114 002:462 JLINK_SWO_Control(JLINKARM_SWO_CMD_FLUSH, ...)  returns 0x00 (0000ms, 0463ms total)
T2114 002:462 JLINK_IsHalted()  returns TRUE (0003ms, 0466ms total)
T2114 002:466 JLINK_Halt()  returns 0x00 (0000ms, 0463ms total)
T2114 002:466 JLINK_IsHalted()  returns TRUE (0000ms, 0463ms total)
T2114 002:466 JLINK_IsHalted()  returns TRUE (0000ms, 0463ms total)
T2114 002:466 JLINK_IsHalted()  returns TRUE (0000ms, 0463ms total)
T2114 002:466 JLINK_ReadReg(R15 (PC))  returns 0x080051B0 (0000ms, 0463ms total)
T2114 002:466 JLINK_ReadReg(XPSR)  returns 0x61000000 (0000ms, 0463ms total)
T2114 002:466 JLINK_SWO_Read(..., Offset = 0x00, NumBytes = 0x400000) - Data:  NumBytesRead = 0x00 (0000ms, 0463ms total)
T2114 002:468 JLINK_SWO_Control(JLINKARM_SWO_CMD_FLUSH, ...)  returns 0x00 (0000ms, 0463ms total)
T2114 002:468 JLINK_ClrBPEx(BPHandle = 0x00000001)  returns 0x00 (0000ms, 0463ms total)
T2114 002:468 JLINK_ClrBPEx(BPHandle = 0x00000002)  returns 0x00 (0000ms, 0463ms total)
T2114 002:468 JLINK_ClrBPEx(BPHandle = 0x00000003)  returns 0x00 (0000ms, 0463ms total)
T2114 002:468 JLINK_ClrBPEx(BPHandle = 0x00000004)  returns 0x00 (0000ms, 0463ms total)
T2114 002:468 JLINK_ClrBPEx(BPHandle = 0x00000005)  returns 0x00 (0000ms, 0463ms total)
T2114 002:468 JLINK_ReadMemU32(0xE000ED30, 0x0001 Items, ...) -- CPU_ReadMem(4 bytes @ 0xE000ED30) - Data: 02 00 00 00  returns 0x01 (0001ms, 0464ms total)
T2114 002:470 JLINK_ReadMemU32(0xE0001028, 0x0001 Items, ...) -- CPU_ReadMem(4 bytes @ 0xE0001028) - Data: 00 00 00 00  returns 0x01 (0001ms, 0465ms total)
T2114 002:472 JLINK_ReadMemU32(0xE0001038, 0x0001 Items, ...) -- CPU_ReadMem(4 bytes @ 0xE0001038) - Data: 00 02 00 00  returns 0x01 (0001ms, 0466ms total)
T2114 002:474 JLINK_ReadMemU32(0xE0001048, 0x0001 Items, ...) -- CPU_ReadMem(4 bytes @ 0xE0001048) - Data: 00 00 00 00  returns 0x01 (0001ms, 0467ms total)
T2114 002:476 JLINK_ReadMemU32(0xE0001058, 0x0001 Items, ...) -- CPU_ReadMem(4 bytes @ 0xE0001058) - Data: 00 00 00 00  returns 0x01 (0001ms, 0468ms total)
T2114 002:478 JLINK_ReadReg(R0)  returns 0x080051B1 (0000ms, 0468ms total)
T2114 002:478 JLINK_ReadReg(R1)  returns 0x20062B88 (0000ms, 0468ms total)
T2114 002:478 JLINK_ReadReg(R2)  returns 0x00000000 (0000ms, 0468ms total)
T2114 002:478 JLINK_ReadReg(R3)  returns 0x08004789 (0000ms, 0468ms total)
T2114 002:478 JLINK_ReadReg(R4)  returns 0x08007840 (0001ms, 0469ms total)
T2114 002:480 JLINK_ReadReg(R5)  returns 0x08007840 (0000ms, 0469ms total)
T2114 002:480 JLINK_ReadReg(R6)  returns 0x00000000 (0000ms, 0469ms total)
T2114 002:480 JLINK_ReadReg(R7)  returns 0x00000000 (0000ms, 0469ms total)
T2114 002:480 JLINK_ReadReg(R8)  returns 0x00000000 (0000ms, 0469ms total)
T2114 002:480 JLINK_ReadReg(R9)  returns 0x00000000 (0001ms, 0470ms total)
T2114 002:482 JLINK_ReadReg(R10)  returns 0x00000000 (0000ms, 0470ms total)
T2114 002:482 JLINK_ReadReg(R11)  returns 0x00000000 (0000ms, 0470ms total)
T2114 002:482 JLINK_ReadReg(R12)  returns 0x00000000 (0000ms, 0470ms total)
T2114 002:482 JLINK_ReadReg(R13 (SP))  returns 0x20062B88 (0000ms, 0470ms total)
T2114 002:482 JLINK_ReadReg(R14)  returns 0x0800082D (0001ms, 0471ms total)
T2114 002:484 JLINK_ReadReg(R15 (PC))  returns 0x080051B0 (0000ms, 0471ms total)
T2114 002:484 JLINK_ReadReg(XPSR)  returns 0x61000000 (0000ms, 0471ms total)
T2114 002:484 JLINK_ReadReg(MSP)  returns 0x20062B88 (0001ms, 0472ms total)
T2114 002:486 JLINK_ReadReg(PSP)  returns 0x00000000 (0000ms, 0472ms total)
T2114 002:486 JLINK_ReadReg(CFBP)  returns 0x00000000 (0000ms, 0472ms total)
T2114 002:486 JLINK_ReadReg(FPSCR)  returns 0x00000000 (0004ms, 0476ms total)
T2114 002:491 JLINK_ReadReg(FPS0)  returns 0x00000000 (0000ms, 0476ms total)
T2114 002:491 JLINK_ReadReg(FPS1)  returns 0x00000000 (0000ms, 0476ms total)
T2114 002:491 JLINK_ReadReg(FPS2)  returns 0x00000000 (0001ms, 0477ms total)
T2114 002:492 JLINK_ReadReg(FPS3)  returns 0x00000000 (0000ms, 0477ms total)
T2114 002:492 JLINK_ReadReg(FPS4)  returns 0x00000000 (0000ms, 0477ms total)
T2114 002:492 JLINK_ReadReg(FPS5)  returns 0x00000000 (0001ms, 0478ms total)
T2114 002:493 JLINK_ReadReg(FPS6)  returns 0x00000000 (0000ms, 0478ms total)
T2114 002:493 JLINK_ReadReg(FPS7)  returns 0x00000000 (0001ms, 0479ms total)
T2114 002:494 JLINK_ReadReg(FPS8)  returns 0x00000000 (0000ms, 0479ms total)
T2114 002:494 JLINK_ReadReg(FPS9)  returns 0x00000000 (0000ms, 0479ms total)
T2114 002:494 JLINK_ReadReg(FPS10)  returns 0x00000000 (0001ms, 0480ms total)
T2114 002:495 JLINK_ReadReg(FPS11)  returns 0x00000000 (0000ms, 0480ms total)
T2114 002:495 JLINK_ReadReg(FPS12)  returns 0x00000000 (0000ms, 0480ms total)
T2114 002:495 JLINK_ReadReg(FPS13)  returns 0x00000000 (0000ms, 0480ms total)
T2114 002:495 JLINK_ReadReg(FPS14)  returns 0x00000000 (0001ms, 0481ms total)
T2114 002:496 JLINK_ReadReg(FPS15)  returns 0xFFFFFFFF (0000ms, 0481ms total)
T2114 002:496 JLINK_ReadReg(FPS16)  returns 0x00000000 (0000ms, 0481ms total)
T2114 002:496 JLINK_ReadReg(FPS17)  returns 0x00000000 (0000ms, 0481ms total)
T2114 002:496 JLINK_ReadReg(FPS18)  returns 0x00000000 (0001ms, 0482ms total)
T2114 002:497 JLINK_ReadReg(FPS19)  returns 0x00000000 (0000ms, 0482ms total)
T2114 002:497 JLINK_ReadReg(FPS20)  returns 0x00000000 (0000ms, 0482ms total)
T2114 002:497 JLINK_ReadReg(FPS21)  returns 0x00000000 (0000ms, 0482ms total)
T2114 002:497 JLINK_ReadReg(FPS22)  returns 0x00000000 (0001ms, 0483ms total)
T2114 002:498 JLINK_ReadReg(FPS23)  returns 0x00000000 (0000ms, 0483ms total)
T2114 002:498 JLINK_ReadReg(FPS24)  returns 0x00000000 (0000ms, 0483ms total)
T2114 002:498 JLINK_ReadReg(FPS25)  returns 0x00000000 (0000ms, 0483ms total)
T2114 002:498 JLINK_ReadReg(FPS26)  returns 0x00000000 (0001ms, 0484ms total)
T2114 002:499 JLINK_ReadReg(FPS27)  returns 0x00000000 (0000ms, 0484ms total)
T2114 002:499 JLINK_ReadReg(FPS28)  returns 0x00000000 (0000ms, 0484ms total)
T2114 002:499 JLINK_ReadReg(FPS29)  returns 0x00000000 (0000ms, 0484ms total)
T2114 002:499 JLINK_ReadReg(FPS30)  returns 0x00000000 (0001ms, 0485ms total)
T2114 002:500 JLINK_ReadReg(FPS31)  returns 0xFFFFFFFF (0000ms, 0485ms total)
T1D3C 002:509 JLINK_ReadMemEx(0x200521D6, 0x0020 Bytes, ..., Flags = 0x02000000) -- CPU_ReadMem(32 bytes @ 0x200521D6) - Data: 00 00 00 00 00 00 00 00 00 00 00 00 00 00 00 00 ...  returns 0x20 (0001ms, 0486ms total)
T1D3C 002:511 JLINK_ReadMemEx(0x20052B85, 0x0001 Bytes, ..., Flags = 0x02000000) -- CPU_ReadMem(1 bytes @ 0x20052B85) - Data: 00  returns 0x01 (0001ms, 0487ms total)
T1D3C 002:513 JLINK_ReadMemEx(0x20052B80, 0x0004 Bytes, ..., Flags = 0x02000000) -- CPU_ReadMem(4 bytes @ 0x20052B80) - Data: 00 00 00 00  returns 0x04 (0001ms, 0488ms total)
T1D3C 002:515 JLINK_ReadMemEx(0x200204CC, 0x0020 Bytes, ..., Flags = 0x02000000) -- CPU_ReadMem(64 bytes @ 0x200204C0) -- Updating C cache (64 bytes @ 0x200204C0) -- Read from C cache (32 bytes @ 0x200204CC) - Data: 00 00 00 00 00 00 00 00 00 00 00 00 00 00 00 00 ...  returns 0x20 (0001ms, 0489ms total)
T1D3C 002:520 JLINK_ReadMemEx(0x080051B0, 0x003C Bytes, ..., Flags = 0x02000000) -- CPU_ReadMem(128 bytes @ 0x08005180) -- Updating C cache (128 bytes @ 0x08005180) -- Read from C cache (60 bytes @ 0x080051B0) - Data: 1C B5 4F F0 00 60 17 49 08 60 00 20 80 F3 13 88 ...  returns 0x3C (0001ms, 0490ms total)
T1D3C 003:701 JLINK_SetResetType(JLINKARM_CM3_RESET_TYPE_NORMAL)  returns JLINKARM_CM3_RESET_TYPE_NORMAL (0000ms, 0490ms total)
T1D3C 003:701 JLINK_Reset() -- CPU_WriteMem(4 bytes @ 0xE000EDF0) -- CPU_WriteMem(4 bytes @ 0xE000EDFC) >0x35 TIF>Setting AIRCR.SYSRESETREQ -- CPU_WriteMem(4 bytes @ 0xE000ED0C) >0x0D TIF> >0x28 TIF> -- CPU_ReadMem(4 bytes @ 0xE000ED0C) -- CPU_ReadMem(4 bytes @ 0xE000EDF0) -- CPU_ReadMem(4 bytes @ 0xE000EDF0) -- CPU_ReadMem(4 bytes @ 0xE000EDF0) -- CPU_WriteMem(4 bytes @ 0xE000EDF0) -- CPU_WriteMem(4 bytes @ 0xE000EDFC) -- CPU_ReadMem(4 bytes @ 0xE000EDF0) -- CPU_WriteMem(4 bytes @ 0xE0002000)
 -- CPU_ReadMem(4 bytes @ 0xE000EDFC) -- CPU_ReadMem(4 bytes @ 0xE0001000) -- CPU_ReadMem(4 bytes @ 0xE0042004) (0075ms, 0565ms total)
T1D3C 003:777 JLINK_WriteU32(0xE000EDFC, 0x01000000) -- CPU_WriteMem(4 bytes @ 0xE000EDFC)  returns 0x00 (0001ms, 0566ms total)
T1D3C 003:779 JLINK_ReadReg(R15 (PC))  returns 0x080002C4 (0000ms, 0566ms total)
T1D3C 003:779 JLINK_ReadReg(XPSR)  returns 0x01000000 (0000ms, 0566ms total)
T1D3C 003:790 JLINK_ReadMemEx(0x080002C4, 0x003C Bytes, ..., Flags = 0x02000000) -- CPU_ReadMem(64 bytes @ 0x080002C0) -- Updating C cache (64 bytes @ 0x080002C0) -- Read from C cache (60 bytes @ 0x080002C4) - Data: 06 48 80 47 06 48 00 47 FE E7 FE E7 FE E7 FE E7 ...  returns 0x3C (0001ms, 0567ms total)
T1D3C 003:866 JLINK_ReadReg(R0)  returns 0x00000000 (0000ms, 0567ms total)
T1D3C 003:866 JLINK_ReadReg(R1)  returns 0x00000000 (0000ms, 0567ms total)
T1D3C 003:866 JLINK_ReadReg(R2)  returns 0x00000000 (0000ms, 0567ms total)
T1D3C 003:866 JLINK_ReadReg(R3)  returns 0x00000000 (0000ms, 0567ms total)
T1D3C 003:866 JLINK_ReadReg(R4)  returns 0x00000000 (0000ms, 0567ms total)
T1D3C 003:866 JLINK_ReadReg(R5)  returns 0x00000000 (0000ms, 0567ms total)
T1D3C 003:866 JLINK_ReadReg(R6)  returns 0x00000000 (0000ms, 0567ms total)
T1D3C 003:866 JLINK_ReadReg(R7)  returns 0x00000000 (0000ms, 0567ms total)
T1D3C 003:866 JLINK_ReadReg(R8)  returns 0x00000000 (0000ms, 0567ms total)
T1D3C 003:866 JLINK_ReadReg(R9)  returns 0x00000000 (0000ms, 0567ms total)
T1D3C 003:866 JLINK_ReadReg(R10)  returns 0x00000000 (0000ms, 0567ms total)
T1D3C 003:866 JLINK_ReadReg(R11)  returns 0x00000000 (0000ms, 0567ms total)
T1D3C 003:866 JLINK_ReadReg(R12)  returns 0x00000000 (0000ms, 0567ms total)
T1D3C 003:867 JLINK_ReadReg(R13 (SP))  returns 0x20062B88 (0000ms, 0567ms total)
T1D3C 003:867 JLINK_ReadReg(R14)  returns 0xFFFFFFFF (0000ms, 0567ms total)
T1D3C 003:867 JLINK_ReadReg(R15 (PC))  returns 0x080002C4 (0000ms, 0567ms total)
T1D3C 003:867 JLINK_ReadReg(XPSR)  returns 0x01000000 (0000ms, 0567ms total)
T1D3C 003:867 JLINK_ReadReg(MSP)  returns 0x20062B88 (0000ms, 0567ms total)
T1D3C 003:867 JLINK_ReadReg(PSP)  returns 0x00000000 (0000ms, 0567ms total)
T1D3C 003:867 JLINK_ReadReg(CFBP)  returns 0x00000000 (0000ms, 0567ms total)
T1D3C 003:867 JLINK_ReadReg(FPSCR)  returns 0x00000000 (0004ms, 0571ms total)
T1D3C 003:872 JLINK_ReadReg(FPS0)  returns 0x00000000 (0000ms, 0571ms total)
T1D3C 003:872 JLINK_ReadReg(FPS1)  returns 0x00000000 (0000ms, 0571ms total)
T1D3C 003:872 JLINK_ReadReg(FPS2)  returns 0x00000000 (0000ms, 0571ms total)
T1D3C 003:872 JLINK_ReadReg(FPS3)  returns 0x00000000 (0000ms, 0571ms total)
T1D3C 003:872 JLINK_ReadReg(FPS4)  returns 0x00000000 (0000ms, 0571ms total)
T1D3C 003:872 JLINK_ReadReg(FPS5)  returns 0x00000000 (0000ms, 0571ms total)
T1D3C 003:872 JLINK_ReadReg(FPS6)  returns 0x00000000 (0000ms, 0571ms total)
T1D3C 003:872 JLINK_ReadReg(FPS7)  returns 0x00000000 (0000ms, 0571ms total)
T1D3C 003:872 JLINK_ReadReg(FPS8)  returns 0x00000000 (0000ms, 0571ms total)
T1D3C 003:872 JLINK_ReadReg(FPS9)  returns 0x00000000 (0000ms, 0571ms total)
T1D3C 003:872 JLINK_ReadReg(FPS10)  returns 0x00000000 (0000ms, 0571ms total)
T1D3C 003:872 JLINK_ReadReg(FPS11)  returns 0x00000000 (0000ms, 0571ms total)
T1D3C 003:872 JLINK_ReadReg(FPS12)  returns 0x00000000 (0000ms, 0571ms total)
T1D3C 003:872 JLINK_ReadReg(FPS13)  returns 0x00000000 (0000ms, 0571ms total)
T1D3C 003:872 JLINK_ReadReg(FPS14)  returns 0x00000000 (0000ms, 0571ms total)
T1D3C 003:872 JLINK_ReadReg(FPS15)  returns 0xFFFFFFFF (0000ms, 0571ms total)
T1D3C 003:872 JLINK_ReadReg(FPS16)  returns 0x00000000 (0000ms, 0571ms total)
T1D3C 003:872 JLINK_ReadReg(FPS17)  returns 0x00000000 (0000ms, 0571ms total)
T1D3C 003:872 JLINK_ReadReg(FPS18)  returns 0x00000000 (0000ms, 0571ms total)
T1D3C 003:872 JLINK_ReadReg(FPS19)  returns 0x00000000 (0000ms, 0571ms total)
T1D3C 003:872 JLINK_ReadReg(FPS20)  returns 0x00000000 (0000ms, 0571ms total)
T1D3C 003:872 JLINK_ReadReg(FPS21)  returns 0x00000000 (0000ms, 0571ms total)
T1D3C 003:872 JLINK_ReadReg(FPS22)  returns 0x00000000 (0000ms, 0571ms total)
T1D3C 003:872 JLINK_ReadReg(FPS23)  returns 0x00000000 (0000ms, 0571ms total)
T1D3C 003:872 JLINK_ReadReg(FPS24)  returns 0x00000000 (0000ms, 0571ms total)
T1D3C 003:872 JLINK_ReadReg(FPS25)  returns 0x00000000 (0000ms, 0571ms total)
T1D3C 003:872 JLINK_ReadReg(FPS26)  returns 0x00000000 (0000ms, 0571ms total)
T1D3C 003:872 JLINK_ReadReg(FPS27)  returns 0x00000000 (0000ms, 0571ms total)
T1D3C 003:872 JLINK_ReadReg(FPS28)  returns 0x00000000 (0000ms, 0571ms total)
T1D3C 003:874 JLINK_ReadReg(FPS29)  returns 0x00000000 (0000ms, 0572ms total)
T1D3C 003:874 JLINK_ReadReg(FPS30)  returns 0x00000000 (0000ms, 0572ms total)
T1D3C 003:874 JLINK_ReadReg(FPS31)  returns 0xFFFFFFFF (0000ms, 0572ms total)
T1D3C 003:874 JLINK_ReadMemEx(0x200521D6, 0x0020 Bytes, ..., Flags = 0x02000000) -- CPU_ReadMem(32 bytes @ 0x200521D6) - Data: 00 00 00 00 00 00 00 00 00 00 00 00 00 00 00 00 ...  returns 0x20 (0001ms, 0573ms total)
T1D3C 003:876 JLINK_ReadMemEx(0x20052B85, 0x0001 Bytes, ..., Flags = 0x02000000) -- CPU_ReadMem(1 bytes @ 0x20052B85) - Data: 00  returns 0x01 (0001ms, 0574ms total)
T1D3C 003:878 JLINK_ReadMemEx(0x20052B80, 0x0004 Bytes, ..., Flags = 0x02000000) -- CPU_ReadMem(4 bytes @ 0x20052B80) - Data: 00 00 00 00  returns 0x04 (0001ms, 0575ms total)
T1D3C 003:880 JLINK_ReadMemEx(0x200204CC, 0x0020 Bytes, ..., Flags = 0x02000000) -- CPU_ReadMem(64 bytes @ 0x200204C0) -- Updating C cache (64 bytes @ 0x200204C0) -- Read from C cache (32 bytes @ 0x200204CC) - Data: 00 00 00 00 00 00 00 00 00 00 00 00 00 00 00 00 ...  returns 0x20 (0001ms, 0576ms total)
T1D3C 003:896 JLINK_WriteU32(0xE0001008, 0x00000000)  returns 0x00 (0000ms, 0576ms total)
T1D3C 003:896 JLINK_WriteU32(0xE000100C, 0x00000000)  returns 0x00 (0000ms, 0576ms total)
T1D3C 003:896 JLINK_WriteU32(0xE0001010, 0x00000000)  returns 0x00 (0000ms, 0576ms total)
T1D3C 003:896 JLINK_WriteU32(0xE0001014, 0x00000000)  returns 0x00 (0000ms, 0576ms total)
T1D3C 003:896 JLINK_WriteU32(0xE0001018, 0x00000000)  returns 0x00 (0000ms, 0576ms total)
T2114 004:221 JLINK_ReadMemEx(0x080002C4, 0x0002 Bytes, ..., Flags = 0x02000000) -- Read from C cache (2 bytes @ 0x080002C4) - Data: 06 48  returns 0x02 (0000ms, 0576ms total)
T2114 004:221 JLINK_SetBPEx(Addr = 0x08000CF2, Type = 0xFFFFFFF2)  returns 0x00000006 (0000ms, 0576ms total)
T2114 004:221 JLINK_SetBPEx(Addr = 0x08000F74, Type = 0xFFFFFFF2)  returns 0x00000007 (0000ms, 0576ms total)
T2114 004:221 JLINK_SetBPEx(Addr = 0x08000D02, Type = 0xFFFFFFF2)  returns 0x00000008 (0000ms, 0576ms total)
T2114 004:221 JLINK_SetBPEx(Addr = 0x08000F6A, Type = 0xFFFFFFF2)  returns 0x00000009 (0001ms, 0577ms total)
T2114 004:222 JLINK_ReadMemU32(0xE0001004, 0x0001 Items, ...) - Data: 00 00 00 00  returns 0x01 (0000ms, 0577ms total)
T2114 004:222 JLINK_WriteU32(0xE0001004, 0x000003FF)  returns 0x00 (0000ms, 0577ms total)
T2114 004:222 JLINK_WriteU32(0xE0001000, 0x00410A1F)  returns 0x00 (0000ms, 0577ms total)
T2114 004:222 JLINK_WriteU32(0xE0000E80, 0x0001000F)  returns 0x00 (0000ms, 0577ms total)
T2114 004:222 JLINK_SWO_Control(JLINKARM_SWO_CMD_GET_NUM_BYTES, ...)  returns 0x00 (0000ms, 0577ms total)
T2114 004:222 JLINK_Go() -- CPU_WriteMem(4 bytes @ 0xE0002000) -- CPU_WriteMem(4 bytes @ 0xE0002000) -- CPU_WriteMem(4 bytes @ 0xE0002000) -- CPU_WriteMem(4 bytes @ 0xE0002000) -- CPU_WriteMem(4 bytes @ 0xE0001000) -- CPU_ReadMem(4 bytes @ 0xE0001000) -- CPU_WriteMem(4 bytes @ 0xE0000E80) -- CPU_WriteMem(4 bytes @ 0xE0001008) -- CPU_WriteMem(4 bytes @ 0xE000100C) -- CPU_WriteMem(4 bytes @ 0xE0001010) -- CPU_WriteMem(4 bytes @ 0xE0001014) -- CPU_WriteMem(4 bytes @ 0xE0001018)
 -- CPU_WriteMem(4 bytes @ 0xE0002008) -- CPU_WriteMem(4 bytes @ 0xE000200C) -- CPU_WriteMem(4 bytes @ 0xE0002010) -- CPU_WriteMem(4 bytes @ 0xE0002014) -- CPU_WriteMem(4 bytes @ 0xE0002018) -- CPU_WriteMem(4 bytes @ 0xE000201C) -- CPU_WriteMem(4 bytes @ 0xE0002020) -- CPU_WriteMem(4 bytes @ 0xE0002024) -- CPU_WriteMem(4 bytes @ 0xE0001004) (0011ms, 0588ms total)
T2114 004:234 JLINK_WriteU32(0xE0001000, 0x00010A1F) -- CPU is running -- CPU_WriteMem(4 bytes @ 0xE0001000)  returns 0x00 (0001ms, 0589ms total)
T2114 004:336 JLINK_SWO_Read(..., Offset = 0x00, NumBytes = 0x400000) - Data: 0E 0B 10 C0 CD DE 17 0E 0B 20 C0 3D 0E 00 30 C0 ...  NumBytesRead = 0x660 (0000ms, 0589ms total)
T2114 004:340 JLINK_SWO_Control(JLINKARM_SWO_CMD_FLUSH, ...)  returns 0x00 (0000ms, 0589ms total)
T2114 004:340 JLINK_IsHalted()  returns FALSE (0001ms, 0590ms total)
T2114 004:441 JLINK_SWO_Read(..., Offset = 0x00, NumBytes = 0x400000) - Data: 0E 0F 10 C0 C8 96 0D 0E 0F 20 C0 88 01 0E 00 30 ...  NumBytesRead = 0x6F1 (0000ms, 0589ms total)
T2114 004:445 JLINK_SWO_Control(JLINKARM_SWO_CMD_FLUSH, ...)  returns 0x00 (0000ms, 0589ms total)
T2114 004:445 JLINK_IsHalted()  returns FALSE (0001ms, 0590ms total)
T2114 004:546 JLINK_SWO_Read(..., Offset = 0x00, NumBytes = 0x400000) - Data: 0E 0F 10 C0 B5 96 0D 0E 0F 20 C0 81 01 0E 00 30 ...  NumBytesRead = 0x75A (0000ms, 0589ms total)
T2114 004:550 JLINK_SWO_Control(JLINKARM_SWO_CMD_FLUSH, ...)  returns 0x00 (0000ms, 0589ms total)
T2114 004:551 JLINK_IsHalted()  returns FALSE (0000ms, 0590ms total)
T2114 004:651 JLINK_SWO_Read(..., Offset = 0x00, NumBytes = 0x400000) - Data: 0E 0F 10 C0 B5 96 0D 0E 0F 20 C0 81 01 0E 00 30 ...  NumBytesRead = 0x72C (0000ms, 0590ms total)
T2114 004:655 JLINK_SWO_Control(JLINKARM_SWO_CMD_FLUSH, ...)  returns 0x00 (0000ms, 0590ms total)
T2114 004:655 JLINK_IsHalted()  returns FALSE (0001ms, 0591ms total)
T2114 004:756 JLINK_SWO_Read(..., Offset = 0x00, NumBytes = 0x400000) - Data: 0E 0F 10 C0 B4 96 0D 0E 0F 20 C0 77 0E 00 30 C0 ...  NumBytesRead = 0x725 (0000ms, 0590ms total)
T2114 004:760 JLINK_SWO_Control(JLINKARM_SWO_CMD_FLUSH, ...)  returns 0x00 (0000ms, 0590ms total)
T2114 004:760 JLINK_IsHalted()  returns FALSE (0001ms, 0591ms total)
T2114 004:861 JLINK_SWO_Read(..., Offset = 0x00, NumBytes = 0x400000) - Data: 0E 0F 10 C0 BE 96 0D 0E 0F 20 C0 81 01 0E 00 30 ...  NumBytesRead = 0x703 (0000ms, 0590ms total)
T2114 004:865 JLINK_SWO_Control(JLINKARM_SWO_CMD_FLUSH, ...)  returns 0x00 (0000ms, 0590ms total)
T2114 004:865 JLINK_IsHalted()  returns FALSE (0001ms, 0591ms total)
T2114 004:966 JLINK_SWO_Read(..., Offset = 0x00, NumBytes = 0x400000) - Data: 0E 0F 10 C0 B4 96 0D 0E 0F 20 C0 77 0E 00 30 C0 ...  NumBytesRead = 0x74E (0000ms, 0590ms total)
T2114 004:970 JLINK_SWO_Control(JLINKARM_SWO_CMD_FLUSH, ...)  returns 0x00 (0000ms, 0590ms total)
T2114 004:972 JLINK_IsHalted()  returns FALSE (0001ms, 0591ms total)
T2114 005:073 JLINK_SWO_Read(..., Offset = 0x00, NumBytes = 0x400000) - Data: 0E 0F 10 C0 BE 96 0D 0E 0F 20 C0 81 01 0E 00 30 ...  NumBytesRead = 0x749 (0000ms, 0590ms total)
T2114 005:077 JLINK_SWO_Control(JLINKARM_SWO_CMD_FLUSH, ...)  returns 0x00 (0000ms, 0590ms total)
T2114 005:079 JLINK_IsHalted()  returns FALSE (0001ms, 0591ms total)
T2114 005:180 JLINK_SWO_Read(..., Offset = 0x00, NumBytes = 0x400000) - Data: 0E 0F 10 C0 B4 96 0D 0E 0F 20 C0 77 0E 00 30 C0 ...  NumBytesRead = 0x74E (0000ms, 0590ms total)
T2114 005:184 JLINK_SWO_Control(JLINKARM_SWO_CMD_FLUSH, ...)  returns 0x00 (0000ms, 0590ms total)
T2114 005:184 JLINK_IsHalted()  returns FALSE (0001ms, 0591ms total)
T2114 005:285 JLINK_SWO_Read(..., Offset = 0x00, NumBytes = 0x400000) - Data: 0E 0F 10 C0 BE 96 0D 0E 0F 20 C0 81 01 0E 00 30 ...  NumBytesRead = 0x726 (0000ms, 0590ms total)
T2114 005:289 JLINK_SWO_Control(JLINKARM_SWO_CMD_FLUSH, ...)  returns 0x00 (0000ms, 0590ms total)
T2114 005:291 JLINK_IsHalted()  returns FALSE (0001ms, 0591ms total)
T2114 005:392 JLINK_SWO_Read(..., Offset = 0x00, NumBytes = 0x400000) - Data: 0E 0F 10 C0 B4 96 0D 0E 0F 20 C0 89 01 0E 00 30 ...  NumBytesRead = 0x748 (0000ms, 0590ms total)
T2114 005:396 JLINK_SWO_Control(JLINKARM_SWO_CMD_FLUSH, ...)  returns 0x00 (0000ms, 0590ms total)
T2114 005:398 JLINK_IsHalted()  returns FALSE (0001ms, 0591ms total)
T2114 005:499 JLINK_SWO_Read(..., Offset = 0x00, NumBytes = 0x400000) - Data: 0E 0F 10 C0 BE 96 0D 0E 0F 20 C0 78 0E 00 30 C0 ...  NumBytesRead = 0x74E (0000ms, 0590ms total)
T2114 005:503 JLINK_SWO_Control(JLINKARM_SWO_CMD_FLUSH, ...)  returns 0x00 (0000ms, 0590ms total)
T2114 005:503 JLINK_IsHalted()  returns FALSE (0001ms, 0591ms total)
T2114 005:605 JLINK_SWO_Read(..., Offset = 0x00, NumBytes = 0x400000) - Data: 0E 0F 10 C0 B4 96 0D 0E 0F 20 C0 77 0E 00 30 C0 ...  NumBytesRead = 0x714 (0000ms, 0590ms total)
T2114 005:610 JLINK_SWO_Control(JLINKARM_SWO_CMD_FLUSH, ...)  returns 0x00 (0000ms, 0590ms total)
T2114 005:610 JLINK_IsHalted()  returns FALSE (0001ms, 0591ms total)
T2114 005:712 JLINK_SWO_Read(..., Offset = 0x00, NumBytes = 0x400000) - Data: 0E 0F 10 C0 B4 96 0D 0E 0F 20 C0 77 0E 00 30 C0 ...  NumBytesRead = 0x748 (0000ms, 0590ms total)
T2114 005:716 JLINK_SWO_Control(JLINKARM_SWO_CMD_FLUSH, ...)  returns 0x00 (0000ms, 0590ms total)
T2114 005:716 JLINK_IsHalted()  returns FALSE (0001ms, 0591ms total)
T2114 005:818 JLINK_SWO_Read(..., Offset = 0x00, NumBytes = 0x400000) - Data: 0E 0F 10 C0 B4 96 0D 0E 0F 20 C0 77 0E 00 30 C0 ...  NumBytesRead = 0x75F (0000ms, 0590ms total)
T2114 005:822 JLINK_SWO_Control(JLINKARM_SWO_CMD_FLUSH, ...)  returns 0x00 (0000ms, 0590ms total)
T2114 005:822 JLINK_IsHalted()  returns FALSE (0001ms, 0591ms total)
T2114 005:925 JLINK_SWO_Read(..., Offset = 0x00, NumBytes = 0x400000) - Data: 0E 0F 10 C0 C8 96 0D 0E 0F 20 C0 88 01 0E 00 30 ...  NumBytesRead = 0x749 (0000ms, 0590ms total)
T2114 005:929 JLINK_SWO_Control(JLINKARM_SWO_CMD_FLUSH, ...)  returns 0x00 (0000ms, 0590ms total)
T2114 005:929 JLINK_IsHalted()  returns FALSE (0001ms, 0591ms total)
T2114 006:031 JLINK_SWO_Read(..., Offset = 0x00, NumBytes = 0x400000) - Data: 0E 0F 10 C0 B4 96 0D 0E 0F 20 C0 77 0E 00 30 C0 ...  NumBytesRead = 0x714 (0000ms, 0590ms total)
T2114 006:036 JLINK_SWO_Control(JLINKARM_SWO_CMD_FLUSH, ...)  returns 0x00 (0000ms, 0590ms total)
T2114 006:036 JLINK_IsHalted()  returns FALSE (0001ms, 0591ms total)
T2114 006:137 JLINK_SWO_Read(..., Offset = 0x00, NumBytes = 0x400000) - Data: 0E 0F 10 C0 B4 96 0D 0E 0F 20 C0 77 0E 00 30 C0 ...  NumBytesRead = 0x73D (0000ms, 0590ms total)
T2114 006:142 JLINK_SWO_Control(JLINKARM_SWO_CMD_FLUSH, ...)  returns 0x00 (0000ms, 0590ms total)
T2114 006:142 JLINK_IsHalted()  returns FALSE (0001ms, 0591ms total)
T2114 006:243 JLINK_Halt()  returns 0x00 (0003ms, 0593ms total)
T2114 006:248 JLINK_IsHalted()  returns TRUE (0000ms, 0593ms total)
T2114 006:248 JLINK_IsHalted()  returns TRUE (0000ms, 0593ms total)
T2114 006:248 JLINK_IsHalted()  returns TRUE (0000ms, 0593ms total)
T2114 006:248 JLINK_ReadReg(R15 (PC))  returns 0x08000E24 (0000ms, 0593ms total)
T2114 006:249 JLINK_ReadReg(XPSR)  returns 0x81000000 (0000ms, 0594ms total)
T2114 006:249 JLINK_SWO_Read(..., Offset = 0x00, NumBytes = 0x400000) - Data: 0E 0F 10 C0 B4 96 0D 0E 0F 20 C0 77 0E 00 30 C0 ...  NumBytesRead = 0x737 (0000ms, 0594ms total)
T2114 006:251 JLINK_SWO_Control(JLINKARM_SWO_CMD_FLUSH, ...)  returns 0x00 (0000ms, 0594ms total)
T2114 006:251 JLINK_ClrBPEx(BPHandle = 0x00000006)  returns 0x00 (0001ms, 0595ms total)
T2114 006:252 JLINK_ClrBPEx(BPHandle = 0x00000007)  returns 0x00 (0000ms, 0595ms total)
T2114 006:252 JLINK_ClrBPEx(BPHandle = 0x00000008)  returns 0x00 (0000ms, 0595ms total)
T2114 006:252 JLINK_ClrBPEx(BPHandle = 0x00000009)  returns 0x00 (0000ms, 0595ms total)
T2114 006:253 JLINK_ReadMemU32(0xE000ED30, 0x0001 Items, ...) -- CPU_ReadMem(4 bytes @ 0xE000ED30) - Data: 01 00 00 00  returns 0x01 (0001ms, 0596ms total)
T2114 006:255 JLINK_ReadMemU32(0xE0001028, 0x0001 Items, ...) -- CPU_ReadMem(4 bytes @ 0xE0001028) - Data: 00 00 00 00  returns 0x01 (0001ms, 0597ms total)
T2114 006:257 JLINK_ReadMemU32(0xE0001038, 0x0001 Items, ...) -- CPU_ReadMem(4 bytes @ 0xE0001038) - Data: 00 02 00 00  returns 0x01 (0001ms, 0598ms total)
T2114 006:259 JLINK_ReadMemU32(0xE0001048, 0x0001 Items, ...) -- CPU_ReadMem(4 bytes @ 0xE0001048) - Data: 00 00 00 00  returns 0x01 (0001ms, 0599ms total)
T2114 006:261 JLINK_ReadMemU32(0xE0001058, 0x0001 Items, ...) -- CPU_ReadMem(4 bytes @ 0xE0001058) - Data: 00 00 00 00  returns 0x01 (0001ms, 0600ms total)
T2114 006:273 JLINK_ReadReg(R0)  returns 0x20052AEC (0000ms, 0600ms total)
T2114 006:273 JLINK_ReadReg(R1)  returns 0x00000001 (0000ms, 0600ms total)
T2114 006:273 JLINK_ReadReg(R2)  returns 0x00000001 (0000ms, 0600ms total)
T2114 006:274 JLINK_ReadReg(R3)  returns 0x20052164 (0000ms, 0601ms total)
T2114 006:274 JLINK_ReadReg(R4)  returns 0x0E000000 (0000ms, 0601ms total)
T2114 006:274 JLINK_ReadReg(R5)  returns 0x00000000 (0000ms, 0601ms total)
T2114 006:275 JLINK_ReadReg(R6)  returns 0xA5A5A5A5 (0000ms, 0601ms total)
T2114 006:275 JLINK_ReadReg(R7)  returns 0xA5A5A5A5 (0000ms, 0601ms total)
T2114 006:275 JLINK_ReadReg(R8)  returns 0xA5A5A5A5 (0000ms, 0601ms total)
T2114 006:275 JLINK_ReadReg(R9)  returns 0xA5A5A5A5 (0000ms, 0601ms total)
T2114 006:276 JLINK_ReadReg(R10)  returns 0xA5A5A5A5 (0000ms, 0602ms total)
T2114 006:276 JLINK_ReadReg(R11)  returns 0xA5A5A5A5 (0000ms, 0602ms total)
T2114 006:276 JLINK_ReadReg(R12)  returns 0xA5A5A5A5 (0000ms, 0602ms total)
T2114 006:276 JLINK_ReadReg(R13 (SP))  returns 0x20048840 (0001ms, 0603ms total)
T2114 006:277 JLINK_ReadReg(R14)  returns 0x08000E6F (0000ms, 0603ms total)
T2114 006:277 JLINK_ReadReg(R15 (PC))  returns 0x08000E24 (0000ms, 0603ms total)
T2114 006:277 JLINK_ReadReg(XPSR)  returns 0x81000000 (0001ms, 0604ms total)
T2114 006:278 JLINK_ReadReg(MSP)  returns 0x20062B68 (0000ms, 0604ms total)
T2114 006:278 JLINK_ReadReg(PSP)  returns 0x20048840 (0000ms, 0604ms total)
T2114 006:278 JLINK_ReadReg(CFBP)  returns 0x02000000 (0000ms, 0604ms total)
T2114 006:279 JLINK_ReadReg(FPSCR)  returns 0x00000000 (0004ms, 0609ms total)
T2114 006:284 JLINK_ReadReg(FPS0)  returns 0x00000000 (0000ms, 0609ms total)
T2114 006:285 JLINK_ReadReg(FPS1)  returns 0x00000000 (0000ms, 0609ms total)
T2114 006:286 JLINK_ReadReg(FPS2)  returns 0x00000000 (0000ms, 0609ms total)
T2114 006:286 JLINK_ReadReg(FPS3)  returns 0x00000000 (0000ms, 0609ms total)
T2114 006:286 JLINK_ReadReg(FPS4)  returns 0x00000000 (0000ms, 0609ms total)
T2114 006:286 JLINK_ReadReg(FPS5)  returns 0x00000000 (0000ms, 0609ms total)
T2114 006:286 JLINK_ReadReg(FPS6)  returns 0x00000000 (0000ms, 0609ms total)
T2114 006:286 JLINK_ReadReg(FPS7)  returns 0x00000000 (0001ms, 0610ms total)
T2114 006:288 JLINK_ReadReg(FPS8)  returns 0x00000000 (0000ms, 0610ms total)
T2114 006:288 JLINK_ReadReg(FPS9)  returns 0x00000000 (0000ms, 0610ms total)
T2114 006:288 JLINK_ReadReg(FPS10)  returns 0x00000000 (0000ms, 0610ms total)
T2114 006:288 JLINK_ReadReg(FPS11)  returns 0x00000000 (0000ms, 0610ms total)
T2114 006:288 JLINK_ReadReg(FPS12)  returns 0x00000000 (0000ms, 0610ms total)
T2114 006:289 JLINK_ReadReg(FPS13)  returns 0x00000000 (0000ms, 0611ms total)
T2114 006:290 JLINK_ReadReg(FPS14)  returns 0x00000000 (0000ms, 0611ms total)
T2114 006:290 JLINK_ReadReg(FPS15)  returns 0xFFFFFFFF (0000ms, 0611ms total)
T2114 006:290 JLINK_ReadReg(FPS16)  returns 0x00000000 (0000ms, 0611ms total)
T2114 006:290 JLINK_ReadReg(FPS17)  returns 0x00000000 (0000ms, 0611ms total)
T2114 006:290 JLINK_ReadReg(FPS18)  returns 0x00000000 (0001ms, 0612ms total)
T2114 006:292 JLINK_ReadReg(FPS19)  returns 0x00000000 (0000ms, 0612ms total)
T2114 006:292 JLINK_ReadReg(FPS20)  returns 0x00000000 (0000ms, 0612ms total)
T2114 006:292 JLINK_ReadReg(FPS21)  returns 0x00000000 (0000ms, 0612ms total)
T2114 006:292 JLINK_ReadReg(FPS22)  returns 0x00000000 (0000ms, 0612ms total)
T2114 006:293 JLINK_ReadReg(FPS23)  returns 0x00000000 (0000ms, 0613ms total)
T2114 006:294 JLINK_ReadReg(FPS24)  returns 0x00000000 (0000ms, 0613ms total)
T2114 006:294 JLINK_ReadReg(FPS25)  returns 0x00000000 (0000ms, 0613ms total)
T2114 006:294 JLINK_ReadReg(FPS26)  returns 0x00000000 (0000ms, 0613ms total)
T2114 006:294 JLINK_ReadReg(FPS27)  returns 0x00000000 (0001ms, 0614ms total)
T2114 006:296 JLINK_ReadReg(FPS28)  returns 0x00000000 (0000ms, 0614ms total)
T2114 006:296 JLINK_ReadReg(FPS29)  returns 0x00000000 (0000ms, 0614ms total)
T2114 006:296 JLINK_ReadReg(FPS30)  returns 0x00000000 (0000ms, 0614ms total)
T2114 006:296 JLINK_ReadReg(FPS31)  returns 0xFFFFFFFF (0000ms, 0614ms total)
T1D3C 006:298 JLINK_ReadMemEx(0x2004884C, 0x0004 Bytes, ..., Flags = 0x02000000) -- CPU_ReadMem(64 bytes @ 0x20048840) -- Updating C cache (64 bytes @ 0x20048840) -- Read from C cache (4 bytes @ 0x2004884C) - Data: DD 5C 00 08  returns 0x04 (0001ms, 0616ms total)
T1D3C 006:300 JLINK_ReadMemEx(0x20048840, 0x0004 Bytes, ..., Flags = 0x02000000) -- Read from C cache (4 bytes @ 0x20048840) - Data: A5 A5 A5 A5  returns 0x04 (0000ms, 0616ms total)
T1D3C 006:300 JLINK_ReadMemEx(0x20048844, 0x0004 Bytes, ..., Flags = 0x02000000) -- Read from C cache (4 bytes @ 0x20048844) - Data: A5 A5 A5 A5  returns 0x04 (0000ms, 0616ms total)
T1D3C 006:300 JLINK_ReadMemEx(0x20048848, 0x0004 Bytes, ..., Flags = 0x02000000) -- Read from C cache (4 bytes @ 0x20048848) - Data: A5 A5 A5 A5  returns 0x04 (0001ms, 0617ms total)
